!  2-Port S-parameters saved by WinCal
! VAR NAME=Cap[1_2]_3pF55
! VAR FILENAME=Cap[1_2]_3pF55.S2P
! VAR DATE=2/4/2010 3:04:58 PM
! VAR PHYS_PORTS=1,2
! VAR ObjTypeName=DATASET
! VAR IndexType=Frequency
!
# Hz S MA R 50
100000000.000 +9.7702890568E-001 -1.1596112922E+001 +1.7569313324E-001 +7.8678680605E+001 +1.7714163010E-001 +7.9313759342E+001 +9.7635953965E-001 -1.1572326131E+001
299500000.000 +8.7998117232E-001 -2.8488622697E+001 +4.7096975462E-001 +6.1270093200E+001 +4.7111411651E-001 +6.1237149362E+001 +8.7826810255E-001 -2.8797644632E+001
499000000.000 +7.4457412965E-001 -4.2191924385E+001 +6.6285041543E-001 +4.7438752662E+001 +6.6337940207E-001 +4.7436760062E+001 +7.4301018543E-001 -4.2655856733E+001
698500000.000 +6.2490221453E-001 -5.1843583225E+001 +7.7636928319E-001 +3.7579176657E+001 +7.7683479639E-001 +3.7621538963E+001 +6.2344009429E-001 -5.2441161192E+001
898000000.000 +5.2973533673E-001 -5.8707943004E+001 +8.4337798059E-001 +3.0601919190E+001 +8.4390255570E-001 +3.0607072336E+001 +5.2844127159E-001 -5.9435332386E+001
1097500000.000 +4.5642081410E-001 -6.3692784537E+001 +8.8490231555E-001 +2.5483006344E+001 +8.8569662848E-001 +2.5486887026E+001 +4.5534905635E-001 -6.4602351957E+001
1297000000.000 +4.0008877431E-001 -6.7464405476E+001 +9.1134880287E-001 +2.1562604883E+001 +9.1230687176E-001 +2.1567332982E+001 +3.9879821349E-001 -6.8528505558E+001
1496500000.000 +3.5566254631E-001 -7.0417720294E+001 +9.2980373566E-001 +1.8527198960E+001 +9.3049403497E-001 +1.8523270910E+001 +3.5465889738E-001 -7.1591225933E+001
1696000000.000 +3.1980541887E-001 -7.2847812995E+001 +9.4299978866E-001 +1.6032217460E+001 +9.4343082312E-001 +1.6062130368E+001 +3.1910695028E-001 -7.4175201821E+001
1895500000.000 +2.9068235594E-001 -7.4848295366E+001 +9.5265582613E-001 +1.3994256751E+001 +9.5284634055E-001 +1.4008049723E+001 +2.9001017864E-001 -7.6397529367E+001
2095000000.000 +2.6697649205E-001 -7.6599810068E+001 +9.6032127202E-001 +1.2256667689E+001 +9.6055500061E-001 +1.2251750437E+001 +2.6650117700E-001 -7.8297094343E+001
2294500000.000 +2.4668819543E-001 -7.8011208572E+001 +9.6526644280E-001 +1.0740676819E+001 +9.6546315979E-001 +1.0777884570E+001 +2.4618714565E-001 -7.9870300335E+001
2494000000.000 +2.2928254363E-001 -7.9413492221E+001 +9.6986705725E-001 +9.4437627331E+000 +9.7055776083E-001 +9.4638909343E+000 +2.2906227310E-001 -8.1417003074E+001
2693500000.000 +2.1490927427E-001 -8.0703416704E+001 +9.7379026033E-001 +8.2379899879E+000 +9.7429133144E-001 +8.3272811847E+000 +2.1434063808E-001 -8.2831569836E+001
2893000000.000 +2.0150835507E-001 -8.1755137129E+001 +9.7648060063E-001 +7.2162475175E+000 +9.7757352582E-001 +7.1904979945E+000 +2.0150249922E-001 -8.4202612153E+001
3092500000.000 +1.9081634710E-001 -8.2566865748E+001 +9.7882198532E-001 +6.2772747295E+000 +9.7914413040E-001 +6.2328891247E+000 +1.9026189367E-001 -8.5026111041E+001
3292000000.000 +1.8102107054E-001 -8.3395895267E+001 +9.8114394366E-001 +5.4097466851E+000 +9.8146688045E-001 +5.3848973775E+000 +1.8065367173E-001 -8.6056670076E+001
3491500000.000 +1.7237357111E-001 -8.4258732223E+001 +9.8315486755E-001 +4.5976184358E+000 +9.8297645178E-001 +4.6065522511E+000 +1.7204426162E-001 -8.7050463622E+001
3691000000.000 +1.6468618389E-001 -8.4952493990E+001 +9.8465914008E-001 +3.7634258578E+000 +9.8413779950E-001 +3.8941278600E+000 +1.6427125145E-001 -8.7899821211E+001
3890500000.000 +1.5856983209E-001 -8.5584395681E+001 +9.8585294509E-001 +3.0514453932E+000 +9.8567131026E-001 +3.2449895649E+000 +1.5767676166E-001 -8.8635123163E+001
4090000000.000 +1.5142426435E-001 -8.6292797115E+001 +9.8706744731E-001 +2.3914311472E+000 +9.8671434039E-001 +2.5155991018E+000 +1.5031706687E-001 -8.9292234490E+001
4289500000.000 +1.4606402003E-001 -8.6686822285E+001 +9.8761973926E-001 +1.8107383262E+000 +9.8718587993E-001 +1.8631489176E+000 +1.4538385856E-001 -8.9993172899E+001
4489000000.000 +1.4192452106E-001 -8.7189818946E+001 +9.8847578895E-001 +1.2898506861E+000 +9.8779573784E-001 +1.2762500127E+000 +1.4091362135E-001 -9.0543759122E+001
4688500000.000 +1.3700308421E-001 -8.8045696095E+001 +9.8962387001E-001 +7.3481150650E-001 +9.8875344487E-001 +7.2782313721E-001 +1.3628413422E-001 -9.1238280122E+001
4888000000.000 +1.3317655544E-001 -8.8612004070E+001 +9.9017268329E-001 +2.3540808855E-001 +9.8926808702E-001 +2.1543148529E-001 +1.3246625160E-001 -9.1948421359E+001
5087500000.000 +1.2901704890E-001 -8.9034410094E+001 +9.9062936128E-001 -2.6182629563E-001 +9.9013476051E-001 -3.2873257597E-001 +1.2868436766E-001 -9.2601424573E+001
5287000000.000 +1.2548261881E-001 -8.9479398830E+001 +9.9135533933E-001 -7.3094459142E-001 +9.9034536012E-001 -8.4896322445E-001 +1.2560773817E-001 -9.3466956282E+001
5486500000.000 +1.2234694662E-001 -8.9721792932E+001 +9.9145105010E-001 -1.2345649783E+000 +9.9014818893E-001 -1.3518489633E+000 +1.2235111847E-001 -9.3778780321E+001
5686000000.000 +1.1860010836E-001 -9.0297027594E+001 +9.9227935733E-001 -1.6982336048E+000 +9.9137787483E-001 -1.8510428407E+000 +1.1849609016E-001 -9.4613124441E+001
5885500000.000 +1.1630765202E-001 -9.0496019627E+001 +9.9195397548E-001 -2.1583884740E+000 +9.9175191511E-001 -2.3327736744E+000 +1.1611941703E-001 -9.5335593647E+001
6085000000.000 +1.1386473550E-001 -9.0538442456E+001 +9.9175925641E-001 -2.6275065882E+000 +9.9169624150E-001 -2.8090303466E+000 +1.1349479492E-001 -9.5724935767E+001
6284500000.000 +1.1202315429E-001 -9.1142260496E+001 +9.9189187653E-001 -3.0403523842E+000 +9.9177961085E-001 -3.2081407005E+000 +1.1135455422E-001 -9.5962751668E+001
6484000000.000 +1.0999662636E-001 -9.1718273237E+001 +9.9130619347E-001 -3.4905087288E+000 +9.9190856370E-001 -3.6695732397E+000 +1.0928895834E-001 -9.6344690826E+001
6683500000.000 +1.0793003791E-001 -9.2376090997E+001 +9.9166431812E-001 -3.9459414494E+000 +9.9223421400E-001 -4.0518492393E+000 +1.0751165225E-001 -9.6809625758E+001
6883000000.000 +1.0616927180E-001 -9.2716173599E+001 +9.9181737458E-001 -4.4046732292E+000 +9.9234061793E-001 -4.3921509148E+000 +1.0612839354E-001 -9.7230414080E+001
7082500000.000 +1.0426137724E-001 -9.2889628878E+001 +9.9154439168E-001 -4.8551357632E+000 +9.9207265586E-001 -4.7836065325E+000 +1.0394849231E-001 -9.7414407807E+001
7282000000.000 +1.0213953962E-001 -9.3086800366E+001 +9.9126644278E-001 -5.2353952655E+000 +9.9199170418E-001 -5.1673857013E+000 +1.0256837724E-001 -9.8034906535E+001
7481500000.000 +1.0186702661E-001 -9.3322041692E+001 +9.9156984188E-001 -5.5834188288E+000 +9.9251203003E-001 -5.4894743173E+000 +1.0238291938E-001 -9.8717617648E+001
7681000000.000 +1.0111220540E-001 -9.3799613467E+001 +9.9207807892E-001 -5.9778344691E+000 +9.9316927418E-001 -5.6133414399E+000 +1.0042244423E-001 -9.8911084772E+001
7880500000.000 +9.9387871265E-002 -9.4470661330E+001 +9.9195753676E-001 -6.3624523489E+000 +9.9313969315E-001 -6.1716476955E+000 +9.8681734107E-002 -9.9040260250E+001
8080000000.000 +9.8571148729E-002 -9.4866938973E+001 +9.9279762147E-001 -6.6962886570E+000 +9.9344091274E-001 -6.6365154626E+000 +9.7079644167E-002 -9.9346852568E+001
8279500000.000 +9.6460259949E-002 -9.5533668902E+001 +9.9268563534E-001 -7.0380497068E+000 +9.9358442278E-001 -7.0478567476E+000 +9.6011862376E-002 -9.9684569158E+001
8479000000.000 +9.4770237849E-002 -9.5112542616E+001 +9.9206547153E-001 -7.3795608542E+000 +9.9250380570E-001 -7.4574795568E+000 +9.6202851078E-002 -9.9836183144E+001
8678500000.000 +9.4490823053E-002 -9.4572695855E+001 +9.9146933529E-001 -7.7810360157E+000 +9.9156798824E-001 -7.7719670593E+000 +9.5652139918E-002 -9.9918856910E+001
8878000000.000 +9.2811963726E-002 -9.4642154670E+001 +9.9181129520E-001 -8.0786749777E+000 +9.9147545989E-001 -8.1066376564E+000 +9.4961130350E-002 -1.0098520082E+002
9077500000.000 +9.3697743832E-002 -9.4427381688E+001 +9.9126499424E-001 -8.3463581060E+000 +9.9129424518E-001 -8.4323751344E+000 +9.4731983713E-002 -1.0133732793E+002
9277000000.000 +9.3847000643E-002 -9.4683287339E+001 +9.9174674939E-001 -8.6989566722E+000 +9.9160666765E-001 -8.7997666360E+000 +9.4114521481E-002 -1.0158660336E+002
9476500000.000 +9.3452722407E-002 -9.5762117302E+001 +9.9252658898E-001 -9.0673516370E+000 +9.9182235366E-001 -9.1122856834E+000 +9.3173914670E-002 -1.0207514892E+002
9676000000.000 +9.2964266086E-002 -9.5936022347E+001 +9.9226751927E-001 -9.3788419305E+000 +9.9173882568E-001 -9.5094850862E+000 +9.2042134093E-002 -1.0273514056E+002
9875500000.000 +9.1880186308E-002 -9.6697792838E+001 +9.9210886501E-001 -9.7747720812E+000 +9.9138632237E-001 -9.8198842064E+000 +9.2292536076E-002 -1.0310696390E+002
10075000000.000 +9.1391093683E-002 -9.6409774086E+001 +9.9168739014E-001 -1.0176781720E+001 +9.9048978711E-001 -1.0104030684E+001 +9.2159051929E-002 -1.0317898759E+002
10274500000.000 +9.2069644628E-002 -9.6439893187E+001 +9.9134324781E-001 -1.0443170673E+001 +9.9046942570E-001 -1.0479465442E+001 +9.0931075337E-002 -1.0301650626E+002
10474000000.000 +9.1148456803E-002 -9.7136553834E+001 +9.9154518982E-001 -1.0730935436E+001 +9.9070518239E-001 -1.0903900123E+001 +9.0633537088E-002 -1.0372772534E+002
10673500000.000 +9.1652687541E-002 -9.7360500492E+001 +9.9158769179E-001 -1.1096828005E+001 +9.9033304687E-001 -1.1271099159E+001 +9.1288418323E-002 -1.0404002985E+002
10873000000.000 +9.1537793206E-002 -9.7640146079E+001 +9.9094156756E-001 -1.1455035929E+001 +9.9029234677E-001 -1.1503778262E+001 +9.1637233319E-002 -1.0397186887E+002
11072500000.000 +9.1248660985E-002 -9.8440737925E+001 +9.9031685372E-001 -1.1756409591E+001 +9.8996344605E-001 -1.1860284157E+001 +9.1429981581E-002 -1.0390175832E+002
11272000000.000 +9.0760923742E-002 -9.8794700072E+001 +9.8953084804E-001 -1.2030407351E+001 +9.8948657777E-001 -1.2196808924E+001 +9.1401092961E-002 -1.0434184946E+002
11471500000.000 +9.0167147227E-002 -9.9067882989E+001 +9.8970733663E-001 -1.2263360524E+001 +9.8928229311E-001 -1.2540011792E+001 +9.1814804538E-002 -1.0542002952E+002
11671000000.000 +8.9725896007E-002 -9.9262016038E+001 +9.8930789887E-001 -1.2550514724E+001 +9.8942424466E-001 -1.2794679220E+001 +9.2536454834E-002 -1.0588907560E+002
11870500000.000 +8.9725756181E-002 -9.9222061201E+001 +9.8980120091E-001 -1.2882786953E+001 +9.8997522809E-001 -1.3094787448E+001 +9.1399178525E-002 -1.0640907831E+002
12070000000.000 +9.0041537542E-002 -9.9322434021E+001 +9.8981331308E-001 -1.3221320798E+001 +9.8983879181E-001 -1.3395526693E+001 +9.0248976616E-002 -1.0698429286E+002
12269500000.000 +8.9487307144E-002 -9.9678296543E+001 +9.8987578579E-001 -1.3502451102E+001 +9.8921488523E-001 -1.3717922698E+001 +9.0707347896E-002 -1.0780339266E+002
12469000000.000 +8.9370193655E-002 -9.9405630848E+001 +9.8964376547E-001 -1.3756779425E+001 +9.8941038678E-001 -1.3983360999E+001 +9.0778457099E-002 -1.0770248099E+002
12668500000.000 +9.0157064739E-002 -9.9764470375E+001 +9.9016876455E-001 -1.4097680970E+001 +9.8976667115E-001 -1.4334211639E+001 +9.0068993469E-002 -1.0812656397E+002
12868000000.000 +9.0449927689E-002 -1.0009024649E+002 +9.8964805264E-001 -1.4427641206E+001 +9.8937977767E-001 -1.4724738963E+001 +8.9650347048E-002 -1.0821112680E+002
13067500000.000 +9.0117696717E-002 -1.0060862560E+002 +9.8996499547E-001 -1.4759985550E+001 +9.8917078207E-001 -1.4938051208E+001 +9.0825172857E-002 -1.0859756137E+002
13267000000.000 +9.0623546491E-002 -1.0075849057E+002 +9.8845182298E-001 -1.4922520555E+001 +9.8829862926E-001 -1.5256039232E+001 +9.1933275318E-002 -1.0856152900E+002
13466500000.000 +9.0780017787E-002 -1.0161285535E+002 +9.8801721270E-001 -1.5256548402E+001 +9.8792573182E-001 -1.5563226026E+001 +9.1022808048E-002 -1.0887965777E+002
13666000000.000 +8.9993112811E-002 -1.0225129070E+002 +9.8795061516E-001 -1.5663723050E+001 +9.8746818643E-001 -1.5825888812E+001 +9.0103831258E-002 -1.1024902783E+002
13865500000.000 +8.9834785827E-002 -1.0184781230E+002 +9.8786763082E-001 -1.6026372207E+001 +9.8682116991E-001 -1.6103629089E+001 +9.1778561254E-002 -1.1122598953E+002
14065000000.000 +9.0854645098E-002 -1.0195280403E+002 +9.8687138270E-001 -1.6296928964E+001 +9.8586902923E-001 -1.6353859048E+001 +9.2542409121E-002 -1.1085416388E+002
14264500000.000 +9.1077654129E-002 -1.0236686332E+002 +9.8651587222E-001 -1.6588053652E+001 +9.8528672063E-001 -1.6643503160E+001 +9.1469806695E-002 -1.1059320141E+002
14464000000.000 +9.1590889530E-002 -1.0296554314E+002 +9.8659942588E-001 -1.6849287001E+001 +9.8571276513E-001 -1.6923624213E+001 +9.1300961074E-002 -1.1192757809E+002
14663500000.000 +9.0844121810E-002 -1.0340229156E+002 +9.8616557613E-001 -1.7136562263E+001 +9.8435564258E-001 -1.7159963903E+001 +9.1542301296E-002 -1.1239773266E+002
14863000000.000 +9.1876525358E-002 -1.0415195807E+002 +9.8688374886E-001 -1.7461578344E+001 +9.8482825987E-001 -1.7414527545E+001 +9.2590627716E-002 -1.1271330134E+002
15062500000.000 +9.0664459275E-002 -1.0431372065E+002 +9.8668405787E-001 -1.7784105874E+001 +9.8440232034E-001 -1.7751323007E+001 +9.1800776328E-002 -1.1312696789E+002
15262000000.000 +9.0547958715E-002 -1.0430168866E+002 +9.8666780691E-001 -1.8103045994E+001 +9.8469996453E-001 -1.8027690829E+001 +9.0756975074E-002 -1.1390957435E+002
15461500000.000 +9.0292279838E-002 -1.0427402266E+002 +9.8585426719E-001 -1.8451295094E+001 +9.8354075706E-001 -1.8397102948E+001 +9.1038378350E-002 -1.1521325701E+002
15661000000.000 +9.0029309819E-002 -1.0427117982E+002 +9.8619184769E-001 -1.8714952653E+001 +9.8346616181E-001 -1.8699966057E+001 +9.1897638455E-002 -1.1574164101E+002
15860500000.000 +8.8908189000E-002 -1.0432358130E+002 +9.8590044998E-001 -1.9019591298E+001 +9.8307171578E-001 -1.9008578317E+001 +9.1263825676E-002 -1.1559306666E+002
16060000000.000 +8.9239227624E-002 -1.0400443467E+002 +9.8435744658E-001 -1.9299665700E+001 +9.8175265425E-001 -1.9297710876E+001 +9.0370639581E-002 -1.1637064158E+002
16259500000.000 +9.0792628313E-002 -1.0376559616E+002 +9.8336888459E-001 -1.9472416475E+001 +9.8103726927E-001 -1.9553448424E+001 +9.0881580583E-002 -1.1759061576E+002
16459000000.000 +9.1972793429E-002 -1.0305547971E+002 +9.8232714094E-001 -1.9796935651E+001 +9.7985050178E-001 -1.9896669898E+001 +9.0920401518E-002 -1.1782248899E+002
16658500000.000 +9.1193039657E-002 -1.0381859543E+002 +9.8275047198E-001 -1.9992540275E+001 +9.8042965072E-001 -2.0217471799E+001 +9.0364004056E-002 -1.1750170681E+002
16858000000.000 +9.3031738227E-002 -1.0416758507E+002 +9.8094257331E-001 -2.0253593505E+001 +9.7887023691E-001 -2.0483568627E+001 +8.9220144112E-002 -1.1730943799E+002
17057500000.000 +9.5012189832E-002 -1.0458154389E+002 +9.8020940995E-001 -2.0434006035E+001 +9.7826785551E-001 -2.0738370296E+001 +9.0131497505E-002 -1.1824681213E+002
17257000000.000 +9.4382306192E-002 -1.0490169794E+002 +9.8010273345E-001 -2.0766572992E+001 +9.7839260848E-001 -2.0971274931E+001 +9.1047277328E-002 -1.1824432869E+002
17456500000.000 +9.4661080662E-002 -1.0416528593E+002 +9.7973951746E-001 -2.1053019980E+001 +9.7808763309E-001 -2.1284864859E+001 +8.9575865896E-002 -1.1854060192E+002
17656000000.000 +9.7018483107E-002 -1.0514276129E+002 +9.7913518235E-001 -2.1306792477E+001 +9.7730388252E-001 -2.1499960967E+001 +8.8416893822E-002 -1.1832798944E+002
17855500000.000 +9.7861870322E-002 -1.0607363419E+002 +9.7878638375E-001 -2.1550891742E+001 +9.7726373258E-001 -2.1828328509E+001 +8.8127917239E-002 -1.1927616809E+002
18055000000.000 +9.7907198198E-002 -1.0718216270E+002 +9.7847152076E-001 -2.1760506077E+001 +9.7814343791E-001 -2.2003361079E+001 +8.9516996398E-002 -1.1874178175E+002
18254500000.000 +9.6753067834E-002 -1.0777213930E+002 +9.7869513660E-001 -2.2048846728E+001 +9.7852229109E-001 -2.2294532828E+001 +8.8925009095E-002 -1.1834909904E+002
18454000000.000 +9.6043166318E-002 -1.0863688533E+002 +9.7939939411E-001 -2.2325006489E+001 +9.7915111369E-001 -2.2508751840E+001 +8.8768779580E-002 -1.1866987532E+002
18653500000.000 +9.5746408979E-002 -1.0826366932E+002 +9.7912028827E-001 -2.2704257369E+001 +9.7914106838E-001 -2.2837266097E+001 +8.8586486636E-002 -1.2031816539E+002
18853000000.000 +9.5955565454E-002 -1.0785795488E+002 +9.7881474595E-001 -2.3030353714E+001 +9.7906255418E-001 -2.3124517627E+001 +8.8528486668E-002 -1.2026553870E+002
19052500000.000 +9.5504954342E-002 -1.0725591378E+002 +9.7800203806E-001 -2.3203338386E+001 +9.7794265023E-001 -2.3640959717E+001 +8.8133271232E-002 -1.1968729605E+002
19252000000.000 +9.5708711996E-002 -1.0692069752E+002 +9.7736903542E-001 -2.3500139182E+001 +9.7645804877E-001 -2.3957070279E+001 +8.7779068621E-002 -1.1997398843E+002
19451500000.000 +9.8097172514E-002 -1.0691619525E+002 +9.7595905009E-001 -2.3820882251E+001 +9.7495464404E-001 -2.4146397369E+001 +8.8009020033E-002 -1.2034085802E+002
19651000000.000 +9.9241840569E-002 -1.0718531379E+002 +9.7538972341E-001 -2.4062867501E+001 +9.7441728605E-001 -2.4391783550E+001 +8.9498248978E-002 -1.2023521069E+002
19850500000.000 +9.9032204713E-002 -1.0780177173E+002 +9.7482407303E-001 -2.4331847230E+001 +9.7398636466E-001 -2.4634581522E+001 +8.9714375855E-002 -1.1924889896E+002
20050000000.000 +9.9717125057E-002 -1.0806318791E+002 +9.7510148321E-001 -2.4578418712E+001 +9.7405635043E-001 -2.4922492534E+001 +8.9161128160E-002 -1.1971636325E+002
20249500000.000 +1.0135078227E-001 -1.0757556786E+002 +9.7412534148E-001 -2.4825756860E+001 +9.7255423699E-001 -2.5136548034E+001 +8.9682255131E-002 -1.2014315800E+002
20449000000.000 +1.0226087416E-001 -1.0813828668E+002 +9.7447011318E-001 -2.5027240849E+001 +9.7303604542E-001 -2.5337873050E+001 +9.2441833295E-002 -1.2015056999E+002
20648500000.000 +1.0214049434E-001 -1.0861410134E+002 +9.7395532212E-001 -2.5315839361E+001 +9.7225192465E-001 -2.5631080681E+001 +9.2345011386E-002 -1.1914481987E+002
20848000000.000 +1.0273163973E-001 -1.0931147108E+002 +9.7379328782E-001 -2.5493486297E+001 +9.7260386288E-001 -2.5881829068E+001 +9.2550431012E-002 -1.1917731807E+002
21047500000.000 +1.0342607294E-001 -1.0934374133E+002 +9.7334510398E-001 -2.5753752494E+001 +9.7196427571E-001 -2.6222942876E+001 +9.2812348227E-002 -1.2032415728E+002
21247000000.000 +1.0550067945E-001 -1.0954059499E+002 +9.7238599409E-001 -2.5971234534E+001 +9.7093282026E-001 -2.6473139913E+001 +9.5335492907E-002 -1.2062296105E+002
21446500000.000 +1.0580057339E-001 -1.0981886944E+002 +9.7301692143E-001 -2.6377711634E+001 +9.7136533107E-001 -2.6689061278E+001 +9.7053009464E-002 -1.1957603371E+002
21646000000.000 +1.0593890613E-001 -1.1098846398E+002 +9.7307388641E-001 -2.6866863013E+001 +9.7196044261E-001 -2.6682711997E+001 +9.6909777098E-002 -1.1969836299E+002
21845500000.000 +1.0704819246E-001 -1.1161410380E+002 +9.7249622473E-001 -2.6904815197E+001 +9.7039924670E-001 -2.7088775714E+001 +9.7125229170E-002 -1.2092860875E+002
22045000000.000 +1.0755935918E-001 -1.1266506342E+002 +9.7189558305E-001 -2.7123853566E+001 +9.7071933376E-001 -2.7373026279E+001 +9.9037400267E-002 -1.2228369957E+002
22244500000.000 +1.0563084938E-001 -1.1221701782E+002 +9.7071748261E-001 -2.7418216807E+001 +9.6961214891E-001 -2.7695955423E+001 +9.7744246311E-002 -1.2184286006E+002
22444000000.000 +1.0488926864E-001 -1.1223575650E+002 +9.7103759629E-001 -2.7700836938E+001 +9.6972118264E-001 -2.7969779608E+001 +9.6496577347E-002 -1.2156683981E+002
22643500000.000 +1.0746690610E-001 -1.1146803454E+002 +9.7041223357E-001 -2.7836861803E+001 +9.6820795381E-001 -2.8269288798E+001 +9.7098413927E-002 -1.2275221317E+002
22843000000.000 +1.1016127579E-001 -1.1127185533E+002 +9.7041595655E-001 -2.7978262048E+001 +9.6810765977E-001 -2.8484288884E+001 +9.8741346549E-002 -1.2253074085E+002
23042500000.000 +1.1090295854E-001 -1.1262903052E+002 +9.7118542827E-001 -2.8191780477E+001 +9.6857087431E-001 -2.8784438281E+001 +9.9930029494E-002 -1.2242442039E+002
23242000000.000 +1.0970149695E-001 -1.1276619623E+002 +9.7142913207E-001 -2.8534708882E+001 +9.6934567366E-001 -2.9056218760E+001 +1.0029705132E-001 -1.2205471447E+002
23441500000.000 +1.1210741129E-001 -1.1275887967E+002 +9.7100015273E-001 -2.8779239197E+001 +9.6937737912E-001 -2.9280437715E+001 +1.0098586905E-001 -1.2269857779E+002
