!  2-Port S-parameters saved by WinCal
! VAR NAME=Cap[1_2]_1pF38
! VAR FILENAME=Cap[1_2]_1pF38.S2P
! VAR DATE=2/4/2010 3:22:18 PM
! VAR PHYS_PORTS=1,2
! VAR ObjTypeName=DATASET
! VAR IndexType=Frequencyasd
!
# Hz S MA R 50
100000000.000 +9.9062862049E-001 -5.6537032378E+000 +7.2055703905E-002 +8.2724276182E+001 +7.3428675777E-002 +8.5374731946E+001 +9.8887630314E-001 -5.5393726613E+000
299500000.000 +9.7552397624E-001 -1.2702909684E+001 +2.1378019243E-001 +7.7045216168E+001 +2.1408994595E-001 +7.7085195864E+001 +9.7450581303E-001 -1.2885200960E+001
499000000.000 +9.3773525418E-001 -2.0625611915E+001 +3.4160160503E-001 +6.9136602605E+001 +3.4239931480E-001 +6.9144877006E+001 +9.3572994861E-001 -2.0877242948E+001
698500000.000 +8.8923426224E-001 -2.7841928128E+001 +4.5315441977E-001 +6.1849401744E+001 +4.5390752276E-001 +6.1875167879E+001 +8.8742949244E-001 -2.8133486833E+001
898000000.000 +8.3498947349E-001 -3.4244075145E+001 +5.4675868523E-001 +5.5374814741E+001 +5.4690298223E-001 +5.5376570356E+001 +8.3298415158E-001 -3.4620067101E+001
1097500000.000 +7.7916216989E-001 -3.9861587297E+001 +6.2268737201E-001 +4.9687453337E+001 +6.2334906962E-001 +4.9694880378E+001 +7.7739429419E-001 -4.0333117310E+001
1297000000.000 +7.2568921727E-001 -4.4763439724E+001 +6.8394152893E-001 +4.4719178346E+001 +6.8435225109E-001 +4.4715810566E+001 +7.2337737325E-001 -4.5309495520E+001
1496500000.000 +6.7525317796E-001 -4.9013757665E+001 +7.3297915053E-001 +4.0429459997E+001 +7.3340069678E-001 +4.0420110985E+001 +6.7345802720E-001 -4.9613531264E+001
1696000000.000 +6.2911287302E-001 -5.2727440197E+001 +7.7291555147E-001 +3.6674210109E+001 +7.7340980048E-001 +3.6680305101E+001 +6.2780512454E-001 -5.3403217786E+001
1895500000.000 +5.8743179658E-001 -5.5995933198E+001 +8.0522077298E-001 +3.3392662626E+001 +8.0550689291E-001 +3.3370576851E+001 +5.8576634506E-001 -5.6760116446E+001
2095000000.000 +5.5009700328E-001 -5.8911306943E+001 +8.3136844362E-001 +3.0509614136E+001 +8.3194398060E-001 +3.0484821208E+001 +5.4882753033E-001 -5.9733970769E+001
2294500000.000 +5.1643736505E-001 -6.1410488729E+001 +8.5259201060E-001 +2.7940370545E+001 +8.5286651426E-001 +2.7943642956E+001 +5.1483244626E-001 -6.2311522619E+001
2494000000.000 +4.8568524982E-001 -6.3718679497E+001 +8.7065570140E-001 +2.5682875446E+001 +8.7149853093E-001 +2.5651365009E+001 +4.8440974769E-001 -6.4664135665E+001
2693500000.000 +4.5867559251E-001 -6.5850713571E+001 +8.8570114652E-001 +2.3653029525E+001 +8.8700801483E-001 +2.3626526352E+001 +4.5743161775E-001 -6.6900010459E+001
2893000000.000 +4.3382753756E-001 -6.7707346798E+001 +8.9859454547E-001 +2.1802851875E+001 +9.0004413137E-001 +2.1716793369E+001 +4.3282301402E-001 -6.8874389957E+001
3092500000.000 +4.1143670737E-001 -6.9295960064E+001 +9.0899471908E-001 +2.0133727604E+001 +9.0989074529E-001 +2.0003954196E+001 +4.1002331614E-001 -7.0449010015E+001
3292000000.000 +3.9160952132E-001 -7.0751485661E+001 +9.1858119970E-001 +1.8616434713E+001 +9.1879393527E-001 +1.8456344344E+001 +3.9001149259E-001 -7.2093640131E+001
3491500000.000 +3.7308551158E-001 -7.2216842417E+001 +9.2706338801E-001 +1.7060702758E+001 +9.2660853004E-001 +1.7082108517E+001 +3.7167896689E-001 -7.3597209431E+001
3691000000.000 +3.5626066750E-001 -7.3483114164E+001 +9.3356995997E-001 +1.5694845488E+001 +9.3295798332E-001 +1.5823221375E+001 +3.5470181244E-001 -7.4967496466E+001
3890500000.000 +3.4192464516E-001 -7.4537010078E+001 +9.3906733257E-001 +1.4592361106E+001 +9.3827650329E-001 +1.4683282585E+001 +3.3978263201E-001 -7.6089331006E+001
4090000000.000 +3.2639630563E-001 -7.5769672916E+001 +9.4401707985E-001 +1.3516461439E+001 +9.4370687793E-001 +1.3473634712E+001 +3.2395470227E-001 -7.7322491939E+001
4289500000.000 +3.1391897985E-001 -7.6666846429E+001 +9.4727493425E-001 +1.2475242031E+001 +9.4757043540E-001 +1.2374512042E+001 +3.1209518223E-001 -7.8424794711E+001
4489000000.000 +3.0250591320E-001 -7.7617760095E+001 +9.5148221334E-001 +1.1489246674E+001 +9.5141726353E-001 +1.1371114481E+001 +3.0074001295E-001 -7.9387238719E+001
4688500000.000 +2.9143126150E-001 -7.8702009192E+001 +9.5534894049E-001 +1.0526514900E+001 +9.5503692556E-001 +1.0470960809E+001 +2.8993184276E-001 -8.0382201157E+001
4888000000.000 +2.8163112667E-001 -7.9534690909E+001 +9.5846741308E-001 +9.6818512163E+000 +9.5799845782E-001 +9.6320754098E+000 +2.8001148897E-001 -8.1273797525E+001
5087500000.000 +2.7171727309E-001 -8.0347843531E+001 +9.6120709687E-001 +8.8591460285E+000 +9.6142585419E-001 +8.7814174208E+000 +2.7061840946E-001 -8.2207116205E+001
5287000000.000 +2.6318914474E-001 -8.1145261430E+001 +9.6383215154E-001 +8.0988613622E+000 +9.6360536559E-001 +7.9530532831E+000 +2.6238243722E-001 -8.3109918008E+001
5486500000.000 +2.5508481423E-001 -8.1764870637E+001 +9.6538620540E-001 +7.3278527900E+000 +9.6572624103E-001 +7.1729613394E+000 +2.5405204854E-001 -8.3728664140E+001
5686000000.000 +2.4641203280E-001 -8.2592509197E+001 +9.6774492155E-001 +6.6301716816E+000 +9.6827867833E-001 +6.4123538385E+000 +2.4546850740E-001 -8.4718403793E+001
5885500000.000 +2.3994286005E-001 -8.3154371730E+001 +9.6938569202E-001 +5.9307811845E+000 +9.7009492702E-001 +5.6754310721E+000 +2.3859078237E-001 -8.5524901623E+001
6085000000.000 +2.3345139681E-001 -8.3533737067E+001 +9.7077452139E-001 +5.2433750799E+000 +9.7197837517E-001 +4.9762152137E+000 +2.3181094387E-001 -8.6106455240E+001
6284500000.000 +2.2752601331E-001 -8.4263103094E+001 +9.7236890538E-001 +4.6151661375E+000 +9.7347268596E-001 +4.3630097250E+000 +2.2567002015E-001 -8.6607801552E+001
6484000000.000 +2.2158563454E-001 -8.4815818610E+001 +9.7369498171E-001 +3.9824750901E+000 +9.7432347916E-001 +3.7272439087E+000 +2.1945973650E-001 -8.7183656959E+001
6683500000.000 +2.1569010292E-001 -8.5540899100E+001 +9.7484299990E-001 +3.3576094365E+000 +9.7586946070E-001 +3.1454715076E+000 +2.1416535779E-001 -8.7841395154E+001
6883000000.000 +2.1076299577E-001 -8.6040570657E+001 +9.7573858727E-001 +2.6877529374E+000 +9.7678169974E-001 +2.6556069457E+000 +2.0945847229E-001 -8.8384722146E+001
7082500000.000 +2.0587373000E-001 -8.6418135781E+001 +9.7669184387E-001 +2.0521160915E+000 +9.7742573809E-001 +2.1159587823E+000 +2.0395435125E-001 -8.8843802903E+001
7282000000.000 +2.0044791084E-001 -8.6951555512E+001 +9.7742561835E-001 +1.5171008696E+000 +9.7839848781E-001 +1.5659796590E+000 +1.9931588831E-001 -8.9568106167E+001
7481500000.000 +1.9703227841E-001 -8.7475148421E+001 +9.7812416001E-001 +1.0247504559E+000 +9.7910944967E-001 +1.1096325842E+000 +1.9635794198E-001 -9.0206998054E+001
7681000000.000 +1.9335900645E-001 -8.8002185966E+001 +9.7900275433E-001 +5.1662540464E-001 +9.7997558381E-001 +8.4249283037E-001 +1.9192569518E-001 -9.0515570358E+001
7880500000.000 +1.8893100694E-001 -8.8658956929E+001 +9.8017866823E-001 +5.1922881706E-004 +9.8078696964E-001 +1.4173164629E-001 +1.8749020422E-001 -9.0979514401E+001
8080000000.000 +1.8564713551E-001 -8.9149496217E+001 +9.8086732411E-001 -4.7015698010E-001 +9.8184974228E-001 -4.2787525304E-001 +1.8325952009E-001 -9.1488335641E+001
8279500000.000 +1.8106109063E-001 -8.9788045064E+001 +9.8158968910E-001 -9.0155740908E-001 +9.8241922939E-001 -9.8053374605E-001 +1.7964341043E-001 -9.2004124602E+001
8479000000.000 +1.7728223184E-001 -8.9866660381E+001 +9.8180051687E-001 -1.3783475357E+000 +9.8232181469E-001 -1.4962692754E+000 +1.7729507289E-001 -9.2404410491E+001
8678500000.000 +1.7467725049E-001 -8.9806677976E+001 +9.8172809209E-001 -1.8739730967E+000 +9.8204035888E-001 -1.9508926153E+000 +1.7439663069E-001 -9.2467340485E+001
8878000000.000 +1.7073810704E-001 -9.0270394924E+001 +9.8221049862E-001 -2.2693739546E+000 +9.8221512762E-001 -2.3732232488E+000 +1.7078954508E-001 -9.3270378067E+001
9077500000.000 +1.6955684575E-001 -9.0472371849E+001 +9.8206922660E-001 -2.6341071063E+000 +9.8241515206E-001 -2.8064113147E+000 +1.6877411643E-001 -9.3601275874E+001
9277000000.000 +1.6747902106E-001 -9.0754545277E+001 +9.8316099549E-001 -3.0813836107E+000 +9.8306702606E-001 -3.2688335098E+000 +1.6642251621E-001 -9.3941648945E+001
9476500000.000 +1.6509486986E-001 -9.1545807936E+001 +9.8430744932E-001 -3.4950568181E+000 +9.8402073642E-001 -3.6558930491E+000 +1.6352329206E-001 -9.4300353958E+001
9676000000.000 +1.6299808153E-001 -9.1907500309E+001 +9.8459919751E-001 -3.9255967540E+000 +9.8467695796E-001 -4.1168030030E+000 +1.6042359444E-001 -9.4935617185E+001
9875500000.000 +1.5946346839E-001 -9.2445332019E+001 +9.8565579480E-001 -4.3983055547E+000 +9.8446865624E-001 -4.5068964685E+000 +1.5893892804E-001 -9.5474284185E+001
10075000000.000 +1.5758478150E-001 -9.2346326044E+001 +9.8577127887E-001 -4.8704467227E+000 +9.8369300227E-001 -4.8379188108E+000 +1.5722424613E-001 -9.5585862949E+001
10274500000.000 +1.5644085233E-001 -9.2420752803E+001 +9.8552626635E-001 -5.2192623074E+000 +9.8382940336E-001 -5.3314542661E+000 +1.5412414977E-001 -9.5495519467E+001
10474000000.000 +1.5339481850E-001 -9.3095432490E+001 +9.8659020717E-001 -5.5632181952E+000 +9.8431603796E-001 -5.8470441272E+000 +1.5160306714E-001 -9.6217366420E+001
10673500000.000 +1.5249140256E-001 -9.3336892584E+001 +9.8682338041E-001 -6.0330707386E+000 +9.8407533378E-001 -6.2778700554E+000 +1.5079640615E-001 -9.6904231372E+001
10873000000.000 +1.5113625027E-001 -9.3611635023E+001 +9.8683547547E-001 -6.3536411541E+000 +9.8441488282E-001 -6.5946221669E+000 +1.4977342867E-001 -9.6851992952E+001
11072500000.000 +1.4972113675E-001 -9.4344351839E+001 +9.8636318986E-001 -6.7681212818E+000 +9.8416246304E-001 -6.9986432854E+000 +1.4787963218E-001 -9.7003981119E+001
11272000000.000 +1.4775030573E-001 -9.4780643686E+001 +9.8562888924E-001 -7.1184024060E+000 +9.8395021675E-001 -7.4310528930E+000 +1.4597916173E-001 -9.7330823020E+001
11471500000.000 +1.4564202393E-001 -9.5109186759E+001 +9.8574757911E-001 -7.3990673400E+000 +9.8415068884E-001 -7.8284710779E+000 +1.4484881522E-001 -9.8139287371E+001
11671000000.000 +1.4436652461E-001 -9.5526094302E+001 +9.8543032132E-001 -7.7464532451E+000 +9.8448752487E-001 -8.1410672984E+000 +1.4453515253E-001 -9.8297018140E+001
11870500000.000 +1.4265392698E-001 -9.5946568031E+001 +9.8610867393E-001 -8.1324580571E+000 +9.8538409564E-001 -8.4911964192E+000 +1.4276284960E-001 -9.8507045206E+001
12070000000.000 +1.4112823836E-001 -9.6254089582E+001 +9.8666841640E-001 -8.5088813765E+000 +9.8526581508E-001 -8.8261528003E+000 +1.4025556827E-001 -9.9127435937E+001
12269500000.000 +1.3923923056E-001 -9.6641309696E+001 +9.8629436497E-001 -8.8495281321E+000 +9.8549613515E-001 -9.1941049567E+000 +1.3969528212E-001 -9.9855567524E+001
12469000000.000 +1.3776442894E-001 -9.6624813261E+001 +9.8611630353E-001 -9.1595182364E+000 +9.8574691191E-001 -9.4882455097E+000 +1.3883914437E-001 -9.9782208197E+001
12668500000.000 +1.3685835386E-001 -9.6955884637E+001 +9.8741395650E-001 -9.5423846039E+000 +9.8640723059E-001 -9.8771535220E+000 +1.3684769902E-001 -1.0010772113E+002
12868000000.000 +1.3627484155E-001 -9.7330776975E+001 +9.8722522461E-001 -9.9133383935E+000 +9.8634211148E-001 -1.0308638929E+001 +1.3503496572E-001 -1.0027594224E+002
13067500000.000 +1.3410641985E-001 -9.7775211539E+001 +9.8788854324E-001 -1.0280475012E+001 +9.8682335965E-001 -1.0551525601E+001 +1.3527647429E-001 -1.0075345584E+002
13267000000.000 +1.3346607429E-001 -9.7643522217E+001 +9.8680362326E-001 -1.0492683261E+001 +9.8644864681E-001 -1.0905209936E+001 +1.3550503386E-001 -1.0067072408E+002
13466500000.000 +1.3294350779E-001 -9.7910622119E+001 +9.8703590146E-001 -1.0858357797E+001 +9.8623862631E-001 -1.1229808487E+001 +1.3317366336E-001 -1.0070223012E+002
13666000000.000 +1.3127110749E-001 -9.8499939685E+001 +9.8743765598E-001 -1.1293962950E+001 +9.8577145980E-001 -1.1517443309E+001 +1.3058739213E-001 -1.0166938948E+002
13865500000.000 +1.3046745773E-001 -9.8276476116E+001 +9.8768863405E-001 -1.1706753785E+001 +9.8533126954E-001 -1.1817828522E+001 +1.3161423430E-001 -1.0260908878E+002
14065000000.000 +1.3011985543E-001 -9.8463741587E+001 +9.8693252413E-001 -1.2011362601E+001 +9.8471630929E-001 -1.2076948204E+001 +1.3191373397E-001 -1.0228705192E+002
14264500000.000 +1.2979723155E-001 -9.8743786900E+001 +9.8701132174E-001 -1.2319310346E+001 +9.8416264453E-001 -1.2406216664E+001 +1.2966558310E-001 -1.0202303049E+002
14464000000.000 +1.2962040529E-001 -9.9406965316E+001 +9.8755913076E-001 -1.2604142772E+001 +9.8447955898E-001 -1.2731099888E+001 +1.2805104921E-001 -1.0296309559E+002
14663500000.000 +1.2786893281E-001 -9.9892198671E+001 +9.8726661915E-001 -1.2952924433E+001 +9.8324586481E-001 -1.3015448467E+001 +1.2760556346E-001 -1.0353449000E+002
14863000000.000 +1.2815943573E-001 -1.0028744243E+002 +9.8824428079E-001 -1.3309018341E+001 +9.8373952017E-001 -1.3264416160E+001 +1.2830335835E-001 -1.0374580094E+002
15062500000.000 +1.2666682428E-001 -1.0083057575E+002 +9.8809965116E-001 -1.3644756467E+001 +9.8362793656E-001 -1.3633239200E+001 +1.2675167719E-001 -1.0345554754E+002
15262000000.000 +1.2479266542E-001 -1.0102283088E+002 +9.8919885882E-001 -1.3944435181E+001 +9.8391303689E-001 -1.3957756622E+001 +1.2505295105E-001 -1.0425243612E+002
15461500000.000 +1.2444569637E-001 -1.0107726489E+002 +9.8872798726E-001 -1.4356184598E+001 +9.8329952358E-001 -1.4364562646E+001 +1.2426153184E-001 -1.0540799017E+002
15661000000.000 +1.2321702192E-001 -1.0143890230E+002 +9.8900242964E-001 -1.4680108105E+001 +9.8372272259E-001 -1.4660223640E+001 +1.2541266732E-001 -1.0562541602E+002
15860500000.000 +1.2139293025E-001 -1.0170387523E+002 +9.8900024168E-001 -1.5033438736E+001 +9.8425093525E-001 -1.5010739211E+001 +1.2443536031E-001 -1.0511255505E+002
16060000000.000 +1.2069933619E-001 -1.0193967832E+002 +9.8758501950E-001 -1.5343331773E+001 +9.8327014559E-001 -1.5342289161E+001 +1.2258293301E-001 -1.0569243178E+002
16259500000.000 +1.2089873446E-001 -1.0157391158E+002 +9.8723130719E-001 -1.5519586447E+001 +9.8315844187E-001 -1.5647210466E+001 +1.2305298720E-001 -1.0685083057E+002
16459000000.000 +1.2107604309E-001 -1.0143885889E+002 +9.8613652005E-001 -1.5889784317E+001 +9.8321185308E-001 -1.6010988529E+001 +1.2410011519E-001 -1.0722747399E+002
16658500000.000 +1.1981514329E-001 -1.0206793660E+002 +9.8690722081E-001 -1.6134925964E+001 +9.8398097320E-001 -1.6368847172E+001 +1.2330025084E-001 -1.0681534844E+002
16858000000.000 +1.2018046222E-001 -1.0213399353E+002 +9.8652596327E-001 -1.6393761316E+001 +9.8300962659E-001 -1.6675040832E+001 +1.2135237533E-001 -1.0707906167E+002
17057500000.000 +1.2140453280E-001 -1.0213572144E+002 +9.8615108198E-001 -1.6664990060E+001 +9.8237143908E-001 -1.7003039251E+001 +1.2152627977E-001 -1.0839381279E+002
17257000000.000 +1.2075314541E-001 -1.0234013841E+002 +9.8569819159E-001 -1.7031007999E+001 +9.8204267966E-001 -1.7254384533E+001 +1.2255852067E-001 -1.0847755820E+002
17456500000.000 +1.2001305741E-001 -1.0250286217E+002 +9.8567902633E-001 -1.7320010736E+001 +9.8241406700E-001 -1.7580970982E+001 +1.2133252410E-001 -1.0845150123E+002
17656000000.000 +1.2045588537E-001 -1.0309323095E+002 +9.8524773271E-001 -1.7635591535E+001 +9.8136338645E-001 -1.7858931679E+001 +1.1910113701E-001 -1.0861136251E+002
17855500000.000 +1.2050131716E-001 -1.0352102722E+002 +9.8502940316E-001 -1.7925155281E+001 +9.8187322718E-001 -1.8238358114E+001 +1.1832639222E-001 -1.1013970444E+002
18055000000.000 +1.2102308992E-001 -1.0384372872E+002 +9.8394144473E-001 -1.8200695587E+001 +9.8216424282E-001 -1.8485782245E+001 +1.2111709242E-001 -1.1025953848E+002
18254500000.000 +1.1920781916E-001 -1.0441640273E+002 +9.8384106792E-001 -1.8481088222E+001 +9.8243012187E-001 -1.8811503793E+001 +1.1985261426E-001 -1.0973900027E+002
18454000000.000 +1.1840093528E-001 -1.0547827466E+002 +9.8435230312E-001 -1.8792762284E+001 +9.8267915624E-001 -1.9036314170E+001 +1.1819041237E-001 -1.1022491132E+002
18653500000.000 +1.1788144615E-001 -1.0561017831E+002 +9.8445917884E-001 -1.9182110023E+001 +9.8301982299E-001 -1.9349409315E+001 +1.1724361638E-001 -1.1161145851E+002
18853000000.000 +1.1773907090E-001 -1.0546515939E+002 +9.8381488201E-001 -1.9565704624E+001 +9.8258255353E-001 -1.9686439465E+001 +1.1821190480E-001 -1.1203200296E+002
19052500000.000 +1.1629804885E-001 -1.0545273465E+002 +9.8324207875E-001 -1.9718530053E+001 +9.8212696517E-001 -2.0234388377E+001 +1.1788500193E-001 -1.1156565459E+002
19252000000.000 +1.1526868544E-001 -1.0562199491E+002 +9.8247844359E-001 -2.0037575387E+001 +9.8136139030E-001 -2.0559016126E+001 +1.1541726475E-001 -1.1163501339E+002
19451500000.000 +1.1699105577E-001 -1.0536454739E+002 +9.8131023323E-001 -2.0420651771E+001 +9.8005959691E-001 -2.0796305950E+001 +1.1508155131E-001 -1.1273974710E+002
19651000000.000 +1.1782959576E-001 -1.0577816766E+002 +9.8078155550E-001 -2.0680604126E+001 +9.7933179891E-001 -2.1060080739E+001 +1.1669200224E-001 -1.1303332978E+002
19850500000.000 +1.1664877581E-001 -1.0642245823E+002 +9.8091688912E-001 -2.0959760052E+001 +9.7944079293E-001 -2.1340018734E+001 +1.1636094025E-001 -1.1204390156E+002
20050000000.000 +1.1627276008E-001 -1.0686785146E+002 +9.8087506859E-001 -2.1239425452E+001 +9.7961006487E-001 -2.1672932138E+001 +1.1451439440E-001 -1.1273931883E+002
20249500000.000 +1.1696350920E-001 -1.0621754826E+002 +9.8038131855E-001 -2.1533951243E+001 +9.7830821022E-001 -2.1938015670E+001 +1.1397128284E-001 -1.1365293835E+002
20449000000.000 +1.1749176906E-001 -1.0606095443E+002 +9.8088046778E-001 -2.1767733562E+001 +9.7827060865E-001 -2.2139445123E+001 +1.1659455107E-001 -1.1383672104E+002
20648500000.000 +1.1685889195E-001 -1.0660805556E+002 +9.8083110314E-001 -2.2065753984E+001 +9.7812254020E-001 -2.2459356876E+001 +1.1561405781E-001 -1.1298470640E+002
20848000000.000 +1.1702053320E-001 -1.0718877068E+002 +9.8067865363E-001 -2.2252005208E+001 +9.7821911734E-001 -2.2740308131E+001 +1.1446942578E-001 -1.1290338943E+002
21047500000.000 +1.1741151072E-001 -1.0733902948E+002 +9.8016430502E-001 -2.2518224482E+001 +9.7744119645E-001 -2.3125327779E+001 +1.1362318669E-001 -1.1437647142E+002
21247000000.000 +1.1893871409E-001 -1.0742338091E+002 +9.7887593244E-001 -2.2759421019E+001 +9.7615433281E-001 -2.3378294738E+001 +1.1613482553E-001 -1.1475581345E+002
21446500000.000 +1.1846405184E-001 -1.0791286198E+002 +9.7918512976E-001 -2.3193335385E+001 +9.7619408795E-001 -2.3627385777E+001 +1.1750053729E-001 -1.1393909529E+002
21646000000.000 +1.1802712470E-001 -1.0892825936E+002 +9.7889896149E-001 -2.3604153181E+001 +9.7628129630E-001 -2.3647818214E+001 +1.1625267732E-001 -1.1464428535E+002
21845500000.000 +1.1854809314E-001 -1.0958396587E+002 +9.7862266396E-001 -2.3733148122E+001 +9.7468096256E-001 -2.4049005103E+001 +1.1562165349E-001 -1.1599226781E+002
22045000000.000 +1.1903478471E-001 -1.1037926562E+002 +9.7765718968E-001 -2.3946422054E+001 +9.7468209712E-001 -2.4368010480E+001 +1.1793126857E-001 -1.1744357309E+002
22244500000.000 +1.1688130564E-001 -1.1046948098E+002 +9.7651434048E-001 -2.4264390784E+001 +9.7411055262E-001 -2.4681773058E+001 +1.1678918209E-001 -1.1680625803E+002
22444000000.000 +1.1550170208E-001 -1.1100464497E+002 +9.7787799677E-001 -2.4607503749E+001 +9.7496324808E-001 -2.5007411336E+001 +1.1420075776E-001 -1.1683713184E+002
22643500000.000 +1.1674825409E-001 -1.1039272225E+002 +9.7715175276E-001 -2.4761502203E+001 +9.7392923103E-001 -2.5343278181E+001 +1.1352058926E-001 -1.1781302542E+002
22843000000.000 +1.1832672343E-001 -1.0998186137E+002 +9.7697392736E-001 -2.4963258663E+001 +9.7382198172E-001 -2.5623132633E+001 +1.1529234507E-001 -1.1760737839E+002
23042500000.000 +1.1915737132E-001 -1.1075417413E+002 +9.7746642143E-001 -2.5178130843E+001 +9.7396760843E-001 -2.5941923393E+001 +1.1596990329E-001 -1.1699333497E+002
23242000000.000 +1.1779466064E-001 -1.1096420782E+002 +9.7778411475E-001 -2.5533384301E+001 +9.7463332159E-001 -2.6215355481E+001 +1.1545276764E-001 -1.1672155856E+002
23441500000.000 +1.1978539624E-001 -1.1104139679E+002 +9.7735367892E-001 -2.5783470576E+001 +9.7537365663E-001 -2.6448676666E+001 +1.1544860788E-001 -1.1714100083E+002
