!  2-Port S-parameters saved by WinCal
! VAR NAME=Cap[1_2]_0pF083
! VAR FILENAME=Cap[1_2]_0pF083.S2P
! VAR DATE=2/4/2010 3:24:30 PM
! VAR PHYS_PORTS=1,2
! VAR ObjTypeName=DATASETasd
! VAR IndexType=Frequency
!
# Hz S MA R 50
100000000.000 +9.9344788404E-001 -1.8251523521E+000 +6.1238892133E-003 +8.5232116954E+001 +6.3060229577E-003 +8.8856193384E+001 +9.9262531939E-001 -1.6970438495E+000
299500000.000 +9.9933126235E-001 -1.4282621525E+000 +1.8540480069E-002 +8.7800894220E+001 +1.8571951505E-002 +8.7825990554E+001 +9.9737013600E-001 -1.5057191202E+000
499000000.000 +9.9804211522E-001 -2.3763990577E+000 +3.0716515122E-002 +8.6978025613E+001 +3.0811490086E-002 +8.7010454420E+001 +9.9649584611E-001 -2.4722350985E+000
698500000.000 +9.9841897080E-001 -3.3343671993E+000 +4.2988909999E-002 +8.6063041718E+001 +4.3063456986E-002 +8.6148673824E+001 +9.9618016452E-001 -3.4111977542E+000
898000000.000 +9.9805805657E-001 -4.3133301881E+000 +5.5217272680E-002 +8.5086078410E+001 +5.5269647084E-002 +8.5160651474E+001 +9.9620888263E-001 -4.3944422074E+000
1097500000.000 +9.9721151165E-001 -5.2340078083E+000 +6.7554697589E-002 +8.4309141272E+001 +6.7577034939E-002 +8.4448715225E+001 +9.9509958125E-001 -5.3397092187E+000
1297000000.000 +9.9627321443E-001 -6.1975955325E+000 +7.9483045901E-002 +8.3317850905E+001 +7.9564257138E-002 +8.3307951680E+001 +9.9392843445E-001 -6.3111483212E+000
1496500000.000 +9.9547541511E-001 -7.1455365391E+000 +9.1604625899E-002 +8.2399271441E+001 +9.1672985802E-002 +8.2379367423E+001 +9.9310567044E-001 -7.2611354912E+000
1696000000.000 +9.9407957187E-001 -8.1034786081E+000 +1.0362738491E-001 +8.1442611024E+001 +1.0365212375E-001 +8.1491358417E+001 +9.9206178610E-001 -8.1839188078E+000
1895500000.000 +9.9242202127E-001 -9.0391542365E+000 +1.1558955663E-001 +8.0503411974E+001 +1.1572336739E-001 +8.0556558763E+001 +9.9025494334E-001 -9.1608034595E+000
2095000000.000 +9.9051173763E-001 -1.0007777453E+001 +1.2744938396E-001 +7.9556878795E+001 +1.2756060909E-001 +7.9588635355E+001 +9.8878592548E-001 -1.0148152030E+001
2294500000.000 +9.8898057292E-001 -1.0944417597E+001 +1.3928221468E-001 +7.8575125354E+001 +1.3944714738E-001 +7.8649435939E+001 +9.8693691318E-001 -1.1108218411E+001
2494000000.000 +9.8716963318E-001 -1.1888342931E+001 +1.5111171814E-001 +7.7672826043E+001 +1.5133165251E-001 +7.7747816317E+001 +9.8556866565E-001 -1.2014864784E+001
2693500000.000 +9.8534893363E-001 -1.2848275003E+001 +1.6278844223E-001 +7.6610798752E+001 +1.6304024511E-001 +7.6783728126E+001 +9.8303274310E-001 -1.3084703622E+001
2893000000.000 +9.8303925976E-001 -1.3787540781E+001 +1.7442780665E-001 +7.5820035316E+001 +1.7470929407E-001 +7.5856220594E+001 +9.8046159313E-001 -1.4003640389E+001
3092500000.000 +9.8090663622E-001 -1.4698062238E+001 +1.8594210184E-001 +7.4935304678E+001 +1.8627216796E-001 +7.4861676380E+001 +9.7827348143E-001 -1.4892914446E+001
3292000000.000 +9.7957913999E-001 -1.5591320513E+001 +1.9779242248E-001 +7.4016244599E+001 +1.9785476764E-001 +7.3930731999E+001 +9.7619735949E-001 -1.5801531148E+001
3491500000.000 +9.7744077248E-001 -1.6586386248E+001 +2.0919695932E-001 +7.3098632659E+001 +2.0923303090E-001 +7.3035657563E+001 +9.7404943454E-001 -1.6758670563E+001
3691000000.000 +9.7515294717E-001 -1.7476867935E+001 +2.2068782417E-001 +7.2115984494E+001 +2.2070399818E-001 +7.2157865182E+001 +9.7143356483E-001 -1.7705669160E+001
3890500000.000 +9.7238753639E-001 -1.8361939211E+001 +2.3179036217E-001 +7.1092233683E+001 +2.3170231391E-001 +7.1252455668E+001 +9.6826802326E-001 -1.8525181211E+001
4090000000.000 +9.6969915622E-001 -1.9236726324E+001 +2.4313270547E-001 +7.0309453733E+001 +2.4304507233E-001 +7.0363192513E+001 +9.6504124368E-001 -1.9391799232E+001
4289500000.000 +9.6568325504E-001 -2.0176037031E+001 +2.5417353777E-001 +6.9350155163E+001 +2.5408448591E-001 +6.9332575890E+001 +9.6176434222E-001 -2.0425296032E+001
4489000000.000 +9.6347945310E-001 -2.1092109588E+001 +2.6533127348E-001 +6.8510775097E+001 +2.6499506369E-001 +6.8414611043E+001 +9.5972438530E-001 -2.1362463174E+001
4688500000.000 +9.6013019809E-001 -2.1986232316E+001 +2.7590286273E-001 +6.7627230206E+001 +2.7575623402E-001 +6.7555445142E+001 +9.5722981368E-001 -2.2230555841E+001
4888000000.000 +9.5698652946E-001 -2.2819430649E+001 +2.8656223403E-001 +6.6747467908E+001 +2.8639324434E-001 +6.6650555792E+001 +9.5389286257E-001 -2.3087791651E+001
5087500000.000 +9.5366281220E-001 -2.3710300826E+001 +2.9726212364E-001 +6.5905698460E+001 +2.9736591195E-001 +6.5787086031E+001 +9.5114988410E-001 -2.3993964262E+001
5287000000.000 +9.5083876716E-001 -2.4588669970E+001 +3.0787360705E-001 +6.5070757966E+001 +3.0771473657E-001 +6.4869647312E+001 +9.4809174750E-001 -2.4923474906E+001
5486500000.000 +9.4670399709E-001 -2.5507567240E+001 +3.1803618614E-001 +6.4096435375E+001 +3.1807357435E-001 +6.3910994561E+001 +9.4419263855E-001 -2.5801397586E+001
5686000000.000 +9.4350357565E-001 -2.6348437471E+001 +3.2844030384E-001 +6.3303268093E+001 +3.2849631107E-001 +6.3086484278E+001 +9.4037612603E-001 -2.6679249010E+001
5885500000.000 +9.3997739995E-001 -2.7249647041E+001 +3.3850848534E-001 +6.2355572222E+001 +3.3888316874E-001 +6.2112909446E+001 +9.3681217076E-001 -2.7623673798E+001
6085000000.000 +9.3682740766E-001 -2.8124075444E+001 +3.4869274112E-001 +6.1440652822E+001 +3.4905450185E-001 +6.1189723762E+001 +9.3278738921E-001 -2.8529136055E+001
6284500000.000 +9.3320877665E-001 -2.9012702425E+001 +3.5829827850E-001 +6.0584243114E+001 +3.5871433342E-001 +6.0324448760E+001 +9.2889213279E-001 -2.9356416511E+001
6484000000.000 +9.2891436717E-001 -2.9866683445E+001 +3.6808262019E-001 +5.9689350922E+001 +3.6836005806E-001 +5.9413455676E+001 +9.2423695207E-001 -3.0193392711E+001
6683500000.000 +9.2518897218E-001 -3.0743475956E+001 +3.7770507418E-001 +5.8824792261E+001 +3.7803414553E-001 +5.8587547296E+001 +9.2045127297E-001 -3.1067723616E+001
6883000000.000 +9.2113767540E-001 -3.1593667011E+001 +3.8721915700E-001 +5.7864783966E+001 +3.8747584430E-001 +5.7795245219E+001 +9.1682314299E-001 -3.1952788926E+001
7082500000.000 +9.1699100647E-001 -3.2416718227E+001 +3.9653378476E-001 +5.6925911708E+001 +3.9667093030E-001 +5.6970044734E+001 +9.1259073133E-001 -3.2795100749E+001
7282000000.000 +9.1209409566E-001 -3.3234931525E+001 +4.0555599043E-001 +5.6134071775E+001 +4.0618877783E-001 +5.6168067364E+001 +9.0800021974E-001 -3.3626464085E+001
7481500000.000 +9.0844724069E-001 -3.4093449409E+001 +4.1467383425E-001 +5.5277865298E+001 +4.1530550017E-001 +5.5342618844E+001 +9.0403860695E-001 -3.4524533534E+001
7681000000.000 +9.0450826772E-001 -3.5031703468E+001 +4.2390192340E-001 +5.4400274758E+001 +4.2426967089E-001 +5.4708150143E+001 +8.9937311490E-001 -3.5080609582E+001
7880500000.000 +9.0001496402E-001 -3.5795807801E+001 +4.3247421180E-001 +5.3611194858E+001 +4.3341192379E-001 +5.3752162329E+001 +8.9636641801E-001 -3.6066487578E+001
8080000000.000 +8.9597032086E-001 -3.6572945379E+001 +4.4147566661E-001 +5.2795622512E+001 +4.4177061248E-001 +5.2850841868E+001 +8.9186898546E-001 -3.6865434931E+001
8279500000.000 +8.9099354664E-001 -3.7424065066E+001 +4.5017834428E-001 +5.2080654674E+001 +4.5054695384E-001 +5.1990133651E+001 +8.8717206732E-001 -3.7665607587E+001
8479000000.000 +8.8646680550E-001 -3.8258901415E+001 +4.5878899946E-001 +5.1250630204E+001 +4.5906719899E-001 +5.1116305117E+001 +8.8356799948E-001 -3.8550890979E+001
8678500000.000 +8.8179295697E-001 -3.9026560273E+001 +4.6698918397E-001 +5.0309874365E+001 +4.6741114481E-001 +5.0304886124E+001 +8.7924782630E-001 -3.9375341818E+001
8878000000.000 +8.7705480980E-001 -3.9797870525E+001 +4.7501245925E-001 +4.9571449446E+001 +4.7553334189E-001 +4.9481870483E+001 +8.7360744366E-001 -4.0157507405E+001
9077500000.000 +8.7280800108E-001 -4.0558881136E+001 +4.8250452910E-001 +4.8780076279E+001 +4.8297701523E-001 +4.8605675484E+001 +8.6864159763E-001 -4.0949907311E+001
9277000000.000 +8.6905919797E-001 -4.1355582563E+001 +4.9080436973E-001 +4.7985462809E+001 +4.9128308066E-001 +4.7832224640E+001 +8.6565368480E-001 -4.1768255971E+001
9476500000.000 +8.6516660890E-001 -4.2156202207E+001 +4.9871752606E-001 +4.7198685248E+001 +4.9881137562E-001 +4.7124394024E+001 +8.6116600763E-001 -4.2479166254E+001
9676000000.000 +8.6007200278E-001 -4.2932715087E+001 +5.0622145051E-001 +4.6430449015E+001 +5.0638137859E-001 +4.6285518759E+001 +8.5481956498E-001 -4.3289185575E+001
9875500000.000 +8.5483709896E-001 -4.3746689485E+001 +5.1420500084E-001 +4.5618215844E+001 +5.1381591792E-001 +4.5525279149E+001 +8.5048916794E-001 -4.4122919470E+001
10075000000.000 +8.5056165952E-001 -4.4489844807E+001 +5.2211389974E-001 +4.4755293981E+001 +5.2076338991E-001 +4.4795180407E+001 +8.4618041096E-001 -4.4872914461E+001
10274500000.000 +8.4658142526E-001 -4.5166519013E+001 +5.2877532834E-001 +4.4012398597E+001 +5.2791492129E-001 +4.3949367651E+001 +8.4167176901E-001 -4.5561059136E+001
10474000000.000 +8.4185491721E-001 -4.5953704132E+001 +5.3608975396E-001 +4.3346168587E+001 +5.3526751126E-001 +4.3059850265E+001 +8.3634030915E-001 -4.6377065957E+001
10673500000.000 +8.3772273086E-001 -4.6726828960E+001 +5.4327364913E-001 +4.2493065217E+001 +5.4202968285E-001 +4.2234130558E+001 +8.3181420820E-001 -4.7281033554E+001
10873000000.000 +8.3319046996E-001 -4.7434701840E+001 +5.5000976443E-001 +4.1709584447E+001 +5.4866689340E-001 +4.1564820192E+001 +8.2740802778E-001 -4.7943226826E+001
11072500000.000 +8.2808649934E-001 -4.8217311600E+001 +5.5589232640E-001 +4.0989045346E+001 +5.5504639528E-001 +4.0801648076E+001 +8.2297534260E-001 -4.8621391816E+001
11272000000.000 +8.2209099050E-001 -4.8950151071E+001 +5.6171205149E-001 +4.0263301737E+001 +5.6125342965E-001 +3.9973682438E+001 +8.1699263372E-001 -4.9321132496E+001
11471500000.000 +8.1718310562E-001 -4.9650718613E+001 +5.6825405645E-001 +3.9660834914E+001 +5.6760406520E-001 +3.9200436574E+001 +8.1188351638E-001 -5.0120828397E+001
11671000000.000 +8.1267109037E-001 -5.0315217520E+001 +5.7360203583E-001 +3.8980586689E+001 +5.7341400919E-001 +3.8588702612E+001 +8.0838784949E-001 -5.0740231334E+001
11870500000.000 +8.0892400018E-001 -5.1030776670E+001 +5.8006733915E-001 +3.8325239984E+001 +5.8024273828E-001 +3.7967177360E+001 +8.0564440697E-001 -5.1386256185E+001
12070000000.000 +8.0431430394E-001 -5.1755242810E+001 +5.8706888925E-001 +3.7612838011E+001 +5.8720252877E-001 +3.7289557170E+001 +8.0024641297E-001 -5.2121150436E+001
12269500000.000 +7.9842386428E-001 -5.2455527863E+001 +5.9322244180E-001 +3.6904744111E+001 +5.9331427049E-001 +3.6534133793E+001 +7.9529782446E-001 -5.2885322492E+001
12469000000.000 +7.9350935222E-001 -5.3089298690E+001 +5.9918341203E-001 +3.6218956379E+001 +5.9949395529E-001 +3.5890167666E+001 +7.9146576188E-001 -5.3519256063E+001
12668500000.000 +7.9006634039E-001 -5.3806057683E+001 +6.0540748826E-001 +3.5495785151E+001 +6.0584780408E-001 +3.5182671357E+001 +7.8740421337E-001 -5.4177094258E+001
12868000000.000 +7.8576046759E-001 -5.4565075937E+001 +6.1098287803E-001 +3.4717962721E+001 +6.1136528128E-001 +3.4371965932E+001 +7.8152021032E-001 -5.4829230414E+001
13067500000.000 +7.8039659100E-001 -5.5249893407E+001 +6.1722775835E-001 +3.4064077380E+001 +6.1738762148E-001 +3.3766033630E+001 +7.7799097669E-001 -5.5654990594E+001
13267000000.000 +7.7458325015E-001 -5.5836551466E+001 +6.2207801549E-001 +3.3322780490E+001 +6.2177423987E-001 +3.2968709322E+001 +7.7285314911E-001 -5.6313177968E+001
13466500000.000 +7.7007329083E-001 -5.6440347783E+001 +6.2668892781E-001 +3.2616399254E+001 +6.2648077229E-001 +3.2312040369E+001 +7.6747934602E-001 -5.6849129881E+001
13666000000.000 +7.6595395290E-001 -5.7115411553E+001 +6.3183981703E-001 +3.1904002593E+001 +6.3135195599E-001 +3.1707602581E+001 +7.6121747987E-001 -5.7484253022E+001
13865500000.000 +7.6136186039E-001 -5.7736698438E+001 +6.3725428807E-001 +3.1194429342E+001 +6.3578890707E-001 +3.1101505961E+001 +7.5708738147E-001 -5.8271667526E+001
14065000000.000 +7.5699131002E-001 -5.8342629399E+001 +6.4143267801E-001 +3.0574916571E+001 +6.4035374654E-001 +3.0493436398E+001 +7.5373597354E-001 -5.8853569476E+001
14264500000.000 +7.5374214604E-001 -5.9039972312E+001 +6.4661440681E-001 +2.9928824127E+001 +6.4507500966E-001 +2.9862210972E+001 +7.4924433478E-001 -5.9329101002E+001
14464000000.000 +7.5013376903E-001 -5.9682649312E+001 +6.5139325230E-001 +2.9332475973E+001 +6.4994531974E-001 +2.9245090447E+001 +7.4365004465E-001 -5.9925271573E+001
14663500000.000 +7.4432429766E-001 -6.0342497960E+001 +6.5594866938E-001 +2.8715570070E+001 +6.5393914190E-001 +2.8648565394E+001 +7.3878715647E-001 -6.0635498634E+001
14863000000.000 +7.4048348989E-001 -6.0972470925E+001 +6.6107556583E-001 +2.8042001552E+001 +6.5850007872E-001 +2.8106235191E+001 +7.3568919603E-001 -6.1249419835E+001
15062500000.000 +7.3571877851E-001 -6.1620612065E+001 +6.6540577897E-001 +2.7403784852E+001 +6.6292890905E-001 +2.7443464682E+001 +7.3153454433E-001 -6.1730856653E+001
15262000000.000 +7.3162026278E-001 -6.2256685957E+001 +6.7065256947E-001 +2.6853223434E+001 +6.6758243773E-001 +2.6861642658E+001 +7.2699392147E-001 -6.2324103514E+001
15461500000.000 +7.2675118823E-001 -6.2906929956E+001 +6.7514728788E-001 +2.6097985856E+001 +6.7226669103E-001 +2.6129736095E+001 +7.2135154787E-001 -6.3162794535E+001
15661000000.000 +7.2218008657E-001 -6.3528441021E+001 +6.7968914448E-001 +2.5520795217E+001 +6.7674903434E-001 +2.5579151129E+001 +7.2004696620E-001 -6.3865101809E+001
15860500000.000 +7.1672346837E-001 -6.4173558917E+001 +6.8462106491E-001 +2.4910225984E+001 +6.8208932887E-001 +2.4957675148E+001 +7.1752643817E-001 -6.4343904039E+001
16060000000.000 +7.1067731156E-001 -6.4803590107E+001 +6.8796598039E-001 +2.4233362242E+001 +6.8593392449E-001 +2.4262791356E+001 +7.1078064557E-001 -6.4876946699E+001
16259500000.000 +7.0604328735E-001 -6.5272896707E+001 +6.9138429193E-001 +2.3737820628E+001 +6.8926593173E-001 +2.3626135976E+001 +7.0588237634E-001 -6.5602052098E+001
16459000000.000 +7.0161066281E-001 -6.5880858413E+001 +6.9581729716E-001 +2.3045938287E+001 +6.9374962354E-001 +2.2980501950E+001 +7.0304784617E-001 -6.6385581127E+001
16658500000.000 +6.9690695156E-001 -6.6531986471E+001 +7.0005399926E-001 +2.2532112919E+001 +6.9824757740E-001 +2.2307177908E+001 +6.9999169319E-001 -6.6881387534E+001
16858000000.000 +6.9224874677E-001 -6.7067295334E+001 +7.0320112798E-001 +2.1978089090E+001 +7.0103083573E-001 +2.1666645578E+001 +6.9430160505E-001 -6.7353013195E+001
17057500000.000 +6.8809292289E-001 -6.7608556828E+001 +7.0664325720E-001 +2.1345769558E+001 +7.0427395579E-001 +2.0994277170E+001 +6.8837857047E-001 -6.8101488120E+001
17257000000.000 +6.8450611583E-001 -6.8093185279E+001 +7.0977685763E-001 +2.0760592839E+001 +7.0767321178E-001 +2.0501486182E+001 +6.8559806762E-001 -6.8750514440E+001
17456500000.000 +6.7941865557E-001 -6.8660898144E+001 +7.1319978109E-001 +2.0160520605E+001 +7.1125142577E-001 +1.9889502310E+001 +6.8295819643E-001 -6.9160678089E+001
17656000000.000 +6.7495136868E-001 -6.9175711767E+001 +7.1562802162E-001 +1.9612014453E+001 +7.1387469631E-001 +1.9329395411E+001 +6.7730961488E-001 -6.9636162856E+001
17855500000.000 +6.7208275308E-001 -6.9764220332E+001 +7.1936332790E-001 +1.9149178077E+001 +7.1752236963E-001 +1.8729184290E+001 +6.7271333415E-001 -7.0454558624E+001
18055000000.000 +6.6874501548E-001 -7.0220424800E+001 +7.2205171447E-001 +1.8564453739E+001 +7.2078537522E-001 +1.8198970955E+001 +6.7079641829E-001 -7.1091508487E+001
18254500000.000 +6.6430830922E-001 -7.0831507742E+001 +7.2567548517E-001 +1.8050413616E+001 +7.2507724979E-001 +1.7681668407E+001 +6.6790230405E-001 -7.1535573690E+001
18454000000.000 +6.5988301168E-001 -7.1496432172E+001 +7.2921930664E-001 +1.7507126795E+001 +7.2864545170E-001 +1.7192779883E+001 +6.6283135497E-001 -7.1951210572E+001
18653500000.000 +6.5584222347E-001 -7.2172230817E+001 +7.3361065821E-001 +1.6824342336E+001 +7.3309021922E-001 +1.6592703768E+001 +6.5706566801E-001 -7.2695955447E+001
18853000000.000 +6.5173484502E-001 -7.2682328051E+001 +7.3674950966E-001 +1.6168144010E+001 +7.3644616123E-001 +1.6021467953E+001 +6.5477235446E-001 -7.3390067144E+001
19052500000.000 +6.4615494744E-001 -7.3267983186E+001 +7.3977018192E-001 +1.5621731774E+001 +7.3998917340E-001 +1.5185724979E+001 +6.5203589906E-001 -7.3823402921E+001
19252000000.000 +6.4022816667E-001 -7.3840334396E+001 +7.4247383303E-001 +1.5014927705E+001 +7.4288203518E-001 +1.4527471263E+001 +6.4618316870E-001 -7.4284095499E+001
19451500000.000 +6.3638862593E-001 -7.4230993629E+001 +7.4380742502E-001 +1.4388463559E+001 +7.4354479007E-001 +1.3982970190E+001 +6.4074677001E-001 -7.4862525808E+001
19651000000.000 +6.3313351730E-001 -7.4723883235E+001 +7.4577973209E-001 +1.3844677479E+001 +7.4577424604E-001 +1.3455837264E+001 +6.3816849425E-001 -7.5436137066E+001
19850500000.000 +6.2834313855E-001 -7.5212038298E+001 +7.4779351776E-001 +1.3358726217E+001 +7.4796895420E-001 +1.2967652550E+001 +6.3686691175E-001 -7.5722800458E+001
20050000000.000 +6.2429712609E-001 -7.5695640157E+001 +7.5064273985E-001 +1.2885778860E+001 +7.5016514306E-001 +1.2422098550E+001 +6.3199541339E-001 -7.6281694733E+001
20249500000.000 +6.2116693342E-001 -7.6020272823E+001 +7.5351803898E-001 +1.2341376042E+001 +7.5184544825E-001 +1.1915059702E+001 +6.2734995930E-001 -7.6910832830E+001
20449000000.000 +6.1927733618E-001 -7.6386938470E+001 +7.5658445751E-001 +1.1908135070E+001 +7.5469982209E-001 +1.1518634685E+001 +6.2631476152E-001 -7.7540835782E+001
20648500000.000 +6.1456042283E-001 -7.6902802580E+001 +7.5953550737E-001 +1.1326442897E+001 +7.5759707037E-001 +1.0922031126E+001 +6.2310314963E-001 -7.7910537053E+001
20848000000.000 +6.1151478054E-001 -7.7408213156E+001 +7.6201428087E-001 +1.0875841093E+001 +7.6023911119E-001 +1.0399122100E+001 +6.1849972066E-001 -7.8243306860E+001
21047500000.000 +6.0722289804E-001 -7.7970859550E+001 +7.6392219341E-001 +1.0273476928E+001 +7.6172231321E-001 +9.7149349208E+000 +6.1158442949E-001 -7.8839134099E+001
21247000000.000 +6.0414526123E-001 -7.8303729606E+001 +7.6481634913E-001 +9.8174243531E+000 +7.6295293436E-001 +9.2084429883E+000 +6.0950571978E-001 -7.9441204118E+001
21446500000.000 +6.0052536320E-001 -7.8832382317E+001 +7.6724806670E-001 +9.1708213799E+000 +7.6531026613E-001 +8.7189715198E+000 +6.0861450115E-001 -7.9922787532E+001
21646000000.000 +5.9623693042E-001 -7.9411149441E+001 +7.6927560536E-001 +8.4784210174E+000 +7.6715031641E-001 +8.5376011886E+000 +6.0419519163E-001 -8.0274336787E+001
21845500000.000 +5.9160629256E-001 -7.9788698436E+001 +7.6925821768E-001 +8.1670759630E+000 +7.6652667526E-001 +7.8683078949E+000 +5.9924243822E-001 -8.0772641079E+001
22045000000.000 +5.8950196638E-001 -8.0190885546E+001 +7.6993549724E-001 +7.8627839626E+000 +7.6838362045E-001 +7.3945845521E+000 +5.9712602853E-001 -8.1508027012E+001
22244500000.000 +5.8393047644E-001 -8.0634694895E+001 +7.7179403951E-001 +7.2945960970E+000 +7.7020533326E-001 +6.8405324482E+000 +5.9459413162E-001 -8.1718942851E+001
22444000000.000 +5.8093463389E-001 -8.1002020280E+001 +7.7486707383E-001 +6.9739545637E+000 +7.7322496963E-001 +6.4224669384E+000 +5.9134642091E-001 -8.2098260613E+001
22643500000.000 +5.7850106572E-001 -8.1338900094E+001 +7.7621414445E-001 +6.5333329792E+000 +7.7436631604E-001 +5.8268844731E+000 +5.8739232380E-001 -8.2642673724E+001
22843000000.000 +5.7786465702E-001 -8.1638332797E+001 +7.7767865397E-001 +6.1583995904E+000 +7.7589143977E-001 +5.4408463406E+000 +5.8720377992E-001 -8.3160010699E+001
23042500000.000 +5.7769529405E-001 -8.2115731956E+001 +7.8026915342E-001 +5.8195712032E+000 +7.7828127558E-001 +4.9827237058E+000 +5.8626465855E-001 -8.3540225264E+001
23242000000.000 +5.7367079572E-001 -8.2759409496E+001 +7.8359660382E-001 +5.2553387511E+000 +7.8210036693E-001 +4.4634927269E+000 +5.8346825521E-001 -8.3957528448E+001
23441500000.000 +5.7107233034E-001 -8.3137981202E+001 +7.8491608897E-001 +4.7766729725E+000 +7.8337679328E-001 +4.0387243391E+000 +5.8037823454E-001 -8.4476598176E+001
